
T0C70 000:296 SEGGER J-Link V5.02f Log File (0001ms, 0271ms total)
T0C70 000:296 DLL Compiled: Oct  2 2015 20:51:34 (0001ms, 0271ms total)
T0C70 000:296 Logging started @ 2019-01-03 12:12 (0001ms, 0271ms total)
T0C70 000:297 JLINK_SetWarnOutHandler(...) (0000ms, 0271ms total)
T0C70 000:297 JLINK_OpenEx(...)
Firmware: J-Link V9 compiled Sep  1 2016 18:29:50
Hardware: V9.40
S/N: 59400616
Feature(s): RDI, FlashBP, FlashDL, JFlash, GDB  returns O.K. (0267ms, 0538ms total)
T0C70 000:564 JLINK_SetErrorOutHandler(...) (0000ms, 0538ms total)
T0C70 000:564 JLINK_ExecCommand("ProjectFile = "D:\WorkGit\auto_door\device\ESP8266_Communication\USER\JLinkSettings.ini"", ...)  returns 0x00 (0000ms, 0538ms total)
T0C70 000:573 JLINK_ExecCommand("Device = STM32F103RC", ...)Device "STM32F103RC" selected.  returns 0x00 (0013ms, 0551ms total)
T0C70 000:586 JLINK_ExecCommand("DisableConnectionTimeout", ...)  returns 0x01 (0000ms, 0551ms total)
T0C70 000:586 JLINK_GetHardwareVersion()  returns 0x16F30 (0000ms, 0551ms total)
T0C70 000:586 JLINK_GetDLLVersion()  returns 50206 (0000ms, 0551ms total)
T0C70 000:586 JLINK_GetFirmwareString(...) (0000ms, 0551ms total)
T0C70 000:605 JLINK_GetDLLVersion()  returns 50206 (0000ms, 0551ms total)
T0C70 000:605 JLINK_GetCompileDateTime() (0000ms, 0551ms total)
T0C70 000:608 JLINK_GetFirmwareString(...) (0000ms, 0551ms total)
T0C70 000:616 JLINK_GetHardwareVersion()  returns 0x16F30 (0000ms, 0551ms total)
T0C70 000:635 JLINK_TIF_Select(JLINKARM_TIF_JTAG)  returns 0x00 (0001ms, 0552ms total)
T0C70 000:636 JLINK_SetSpeed(5000) (0000ms, 0552ms total)
T0C70 000:636 JLINK_GetIdData(...) >0x2F8 JTAG>Could not measure total IR len. TDO is constant high. >0x30 JTAG>STM32 (connect): Can not attach to CPU. Trying connect under reset. >0x2F8 JTAG>TotalIRLen = 9, IRPrint = 0x0011 >0x30 JTAG> >0x210 JTAG> >0x40 JTAG> >0x40 JTAG> >0x40 JTAG> >0x30 JTAG> >0x40 JTAG> >0x40 JTAG> >0x40 JTAG> >0x40 JTAG> >0x40 JTAG> >0x40 JTAG> >0x40 JTAG> >0x40 JTAG> >0x40 JTAG> >0x40 JTAG> >0x40 JTAG> >0x40 JTAG> >0x40 JTAG> >0x40 JTAG> >0x40 JTAG> >0x40 JTAG> >0x40 JTAG>
 >0x40 JTAG> >0x40 JTAG> >0x40 JTAG> >0x40 JTAG> >0x40 JTAG> >0x40 JTAG> >0x40 JTAG> >0x40 JTAG> >0x40 JTAG> >0x40 JTAG> >0x40 JTAG> >0x2F8 JTAG>TotalIRLen = 9, IRPrint = 0x0011 >0x30 JTAG> >0x210 JTAG> >0x70 JTAG> >0x40 JTAG> >0x40 JTAG> >0x40 JTAG> >0x50 JTAG> >0x80 JTAG> >0x40 JTAG> >0x30 JTAG> >0x40 JTAG> >0x40 JTAG> >0x30 JTAG> >0x40 JTAG> >0x50 JTAG>Found Cortex-M3 r1p1, Little endian. -- CPU_ReadMem(4 bytes @ 0xE000EDF0) -- CPU_ReadMem(4 bytes @ 0xE0002000)
FPUnit: 6 code (BP) slots and 2 literal slots -- CPU_ReadMem(4 bytes @ 0xE000EDFC) -- CPU_WriteMem(4 bytes @ 0xE000EDFC) -- CPU_ReadMem(4 bytes @ 0xE0001000) -- CPU_WriteMem(4 bytes @ 0xE0001000) -- CPU_ReadMem(4 bytes @ 0xE000ED88) -- CPU_WriteMem(4 bytes @ 0xE000ED88) -- CPU_ReadMem(4 bytes @ 0xE000ED88) -- CPU_WriteMem(4 bytes @ 0xE000ED88)CoreSight components:ROMTbl 0 @ E00FF000 -- CPU_ReadMem(16 bytes @ 0xE00FF000) -- CPU_ReadMem(16 bytes @ 0xE000EFF0) -- CPU_ReadMem(16 bytes @ 0xE000EFE0)
ROMTbl 0 [0]: FFF0F000, CID: B105E00D, PID: 001BB000 SCS -- CPU_ReadMem(16 bytes @ 0xE0001FF0) -- CPU_ReadMem(16 bytes @ 0xE0001FE0)ROMTbl 0 [1]: FFF02000, CID: B105E00D, PID: 001BB002 DWT -- CPU_ReadMem(16 bytes @ 0xE0002FF0) -- CPU_ReadMem(16 bytes @ 0xE0002FE0)ROMTbl 0 [2]: FFF03000, CID: B105E00D, PID: 000BB003 FPB -- CPU_ReadMem(16 bytes @ 0xE0000FF0) -- CPU_ReadMem(16 bytes @ 0xE0000FE0)ROMTbl 0 [3]: FFF01000, CID: B105E00D, PID: 001BB001 ITM -- CPU_ReadMem(16 bytes @ 0xE00FF010)
 -- CPU_ReadMem(16 bytes @ 0xE0040FF0) -- CPU_ReadMem(16 bytes @ 0xE0040FE0)ROMTbl 0 [4]: FFF41000, CID: B105900D, PID: 001BB923 TPIU-Lite -- CPU_ReadMem(16 bytes @ 0xE0041FF0) -- CPU_ReadMem(16 bytes @ 0xE0041FE0)ROMTbl 0 [5]: FFF42000, CID: B105900D, PID: 101BB924 ETM-M3 ScanLen=9 NumDevices=2 aId[0]=0x3BA00477 aIrRead[0]=0 aScanLen[0]=0 aScanRead[0]=0 (0188ms, 0740ms total)
T0C70 000:824 JLINK_JTAG_GetDeviceID(DeviceIndex = 0)  returns 0x3BA00477 (0000ms, 0740ms total)
T0C70 000:824 JLINK_JTAG_GetDeviceInfo(DeviceIndex = 0)  returns 0x00 (0000ms, 0740ms total)
T0C70 000:824 JLINK_JTAG_GetDeviceID(DeviceIndex = 1)  returns 0x6414041 (0000ms, 0740ms total)
T0C70 000:824 JLINK_JTAG_GetDeviceInfo(DeviceIndex = 1)  returns 0x00 (0000ms, 0740ms total)
T0C70 000:824 JLINK_GetDLLVersion()  returns 50206 (0000ms, 0740ms total)
T0C70 000:824 JLINK_CORE_GetFound()  returns 0x30000FF (0000ms, 0740ms total)
T0C70 000:824 JLINK_GetDebugInfo(0x100) -- Value=0xE00FF003  returns 0x00 (0000ms, 0740ms total)
T0C70 000:829 JLINK_GetDebugInfo(0x100) -- Value=0xE00FF003  returns 0x00 (0000ms, 0740ms total)
T0C70 000:829 JLINK_GetDebugInfo(0x101) -- Value=0xE0041000  returns 0x00 (0000ms, 0740ms total)
T0C70 000:829 JLINK_GetDebugInfo(0x102) -- Value=0x00000000  returns 0x00 (0000ms, 0740ms total)
T0C70 000:829 JLINK_GetDebugInfo(0x103) -- Value=0xE0040000  returns 0x00 (0000ms, 0740ms total)
T0C70 000:829 JLINK_GetDebugInfo(0x104) -- Value=0xE0000000  returns 0x00 (0000ms, 0740ms total)
T0C70 000:829 JLINK_GetDebugInfo(0x105) -- Value=0xE0001000  returns 0x00 (0000ms, 0740ms total)
T0C70 000:829 JLINK_GetDebugInfo(0x106) -- Value=0xE0002000  returns 0x00 (0000ms, 0740ms total)
T0C70 000:829 JLINK_GetDebugInfo(0x107) -- Value=0xE000E000  returns 0x00 (0000ms, 0740ms total)
T0C70 000:829 JLINK_GetDebugInfo(0x10C) -- Value=0xE000EDF0  returns 0x00 (0000ms, 0740ms total)
T0C70 000:829 JLINK_ReadMemU32(0xE000ED00, 0x0001 Items, ...) -- CPU is running -- CPU_ReadMem(4 bytes @ 0xE000ED00) - Data: 31 C2 1F 41  returns 0x01 (0001ms, 0741ms total)
T0C70 000:830 JLINK_SetResetType(JLINKARM_RESET_TYPE_NORMAL)  returns JLINKARM_RESET_TYPE_NORMAL (0000ms, 0741ms total)
T0C70 000:830 JLINK_Reset() -- CPU is running -- CPU_WriteMem(4 bytes @ 0xE000EDF0) -- CPU is running -- CPU_WriteMem(4 bytes @ 0xE000EDFC) -- CPU is running -- CPU_WriteMem(4 bytes @ 0xE000ED0C) -- CPU is running -- CPU_ReadMem(4 bytes @ 0xE000EDF0) -- CPU is running -- CPU_ReadMem(4 bytes @ 0xE000EDF0) -- CPU is running -- CPU_WriteMem(4 bytes @ 0xE000EDF0) -- CPU is running -- CPU_WriteMem(4 bytes @ 0xE000EDFC) -- CPU is running -- CPU_ReadMem(4 bytes @ 0xE000EDF0) >0x80 JTAG> >0x40 JTAG> >0x30 JTAG>
 >0x40 JTAG> >0x50 JTAG> >0x40 JTAG> -- CPU_WriteMem(4 bytes @ 0xE000EDFC) -- CPU_WriteMem(4 bytes @ 0xE0001028) -- CPU_WriteMem(4 bytes @ 0xE0001038) -- CPU_WriteMem(4 bytes @ 0xE0001048) -- CPU_WriteMem(4 bytes @ 0xE0001058) -- CPU_WriteMem(4 bytes @ 0xE0002000) -- CPU_ReadMem(4 bytes @ 0xE000EDFC) -- CPU_ReadMem(4 bytes @ 0xE0001000) (0020ms, 0761ms total)
T0C70 000:850 JLINK_Halt()  returns 0x00 (0000ms, 0761ms total)
T0C70 000:850 JLINK_IsHalted()  returns TRUE (0000ms, 0761ms total)
T0C70 000:850 JLINK_ReadMemU32(0xE000EDF0, 0x0001 Items, ...) -- CPU_ReadMem(4 bytes @ 0xE000EDF0) - Data: 03 00 03 00  returns 0x01 (0001ms, 0762ms total)
T0C70 000:851 JLINK_WriteU32(0xE000EDF0, 0xA05F0003) -- CPU_WriteMem(4 bytes @ 0xE000EDF0)  returns 0x00 (0000ms, 0762ms total)
T0C70 000:851 JLINK_WriteU32(0xE000EDFC, 0x01000000) -- CPU_WriteMem(4 bytes @ 0xE000EDFC)  returns 0x00 (0000ms, 0762ms total)
T0C70 000:868 JLINK_GetHWStatus(...)  returns 0x00 (0000ms, 0762ms total)
T0C70 000:883 JLINK_GetNumBPUnits(Type = 0xFFFFFF00)  returns 0x06 (0000ms, 0762ms total)
T0C70 000:883 JLINK_GetNumBPUnits(Type = 0xF0)  returns 0x2000 (0000ms, 0762ms total)
T0C70 000:883 JLINK_GetNumWPUnits()  returns 0x04 (0000ms, 0762ms total)
T0C70 000:896 JLINK_GetSpeed()  returns 0x1388 (0000ms, 0762ms total)
T0C70 000:904 JLINK_ReadMemU32(0xE000E004, 0x0001 Items, ...) -- CPU_ReadMem(4 bytes @ 0xE000E004) - Data: 01 00 00 00  returns 0x01 (0000ms, 0762ms total)
T0C70 000:904 JLINK_ReadMemU32(0xE000E004, 0x0001 Items, ...) -- CPU_ReadMem(4 bytes @ 0xE000E004) - Data: 01 00 00 00  returns 0x01 (0001ms, 0763ms total)
T0C70 000:905 JLINK_WriteMem(0xE0001000, 0x001C Bytes, ...) - Data: 01 00 00 00 00 00 00 00 00 00 00 00 00 00 00 00 ... -- CPU_WriteMem(28 bytes @ 0xE0001000)  returns 0x1C (0001ms, 0764ms total)
T0C70 000:906 JLINK_ReadMem (0xE0001000, 0x001C Bytes, ...) -- CPU_ReadMem(28 bytes @ 0xE0001000) - Data: 01 00 00 40 00 00 00 00 00 00 00 00 00 00 00 00 ...  returns 0x00 (0000ms, 0764ms total)
T0C70 000:906 JLINK_Halt()  returns 0x00 (0000ms, 0764ms total)
T0C70 000:906 JLINK_IsHalted()  returns TRUE (0000ms, 0764ms total)
T0C70 000:911 JLINK_WriteMem(0x20000000, 0x0164 Bytes, ...) - Data: 00 BE 0A E0 0D 78 2D 06 68 40 08 24 40 00 00 D3 ... -- CPU_WriteMem(356 bytes @ 0x20000000)  returns 0x164 (0003ms, 0767ms total)
T0C70 000:914 JLINK_WriteReg(R0, 0x08000000)  returns 0x00 (0000ms, 0767ms total)
T0C70 000:914 JLINK_WriteReg(R1, 0x007A1200)  returns 0x00 (0000ms, 0767ms total)
T0C70 000:914 JLINK_WriteReg(R2, 0x00000001)  returns 0x00 (0000ms, 0767ms total)
T0C70 000:914 JLINK_WriteReg(R3, 0x00000000)  returns 0x00 (0000ms, 0767ms total)
T0C70 000:914 JLINK_WriteReg(R4, 0x00000000)  returns 0x00 (0000ms, 0767ms total)
T0C70 000:914 JLINK_WriteReg(R5, 0x00000000)  returns 0x00 (0000ms, 0767ms total)
T0C70 000:914 JLINK_WriteReg(R6, 0x00000000)  returns 0x00 (0000ms, 0767ms total)
T0C70 000:914 JLINK_WriteReg(R7, 0x00000000)  returns 0x00 (0000ms, 0767ms total)
T0C70 000:914 JLINK_WriteReg(R8, 0x00000000)  returns 0x00 (0000ms, 0767ms total)
T0C70 000:914 JLINK_WriteReg(R9, 0x20000160)  returns 0x00 (0000ms, 0767ms total)
T0C70 000:914 JLINK_WriteReg(R10, 0x00000000)  returns 0x00 (0000ms, 0767ms total)
T0C70 000:914 JLINK_WriteReg(R11, 0x00000000)  returns 0x00 (0000ms, 0767ms total)
T0C70 000:914 JLINK_WriteReg(R12, 0x00000000)  returns 0x00 (0000ms, 0767ms total)
T0C70 000:914 JLINK_WriteReg(R13 (SP), 0x20001000)  returns 0x00 (0000ms, 0767ms total)
T0C70 000:914 JLINK_WriteReg(R14, 0x20000001)  returns 0x00 (0000ms, 0767ms total)
T0C70 000:914 JLINK_WriteReg(R15 (PC), 0x20000038)  returns 0x00 (0000ms, 0767ms total)
T0C70 000:914 JLINK_WriteReg(XPSR, 0x01000000)  returns 0x00 (0000ms, 0767ms total)
T0C70 000:914 JLINK_WriteReg(MSP, 0x20001000)  returns 0x00 (0000ms, 0767ms total)
T0C70 000:914 JLINK_WriteReg(PSP, 0x20001000)  returns 0x00 (0000ms, 0767ms total)
T0C70 000:914 JLINK_WriteReg(CFBP, 0x00000000)  returns 0x00 (0000ms, 0767ms total)
T0C70 000:914 JLINK_SetBPEx(Addr = 0x20000000, Type = 0xFFFFFFF2) -- CPU_ReadMem(2 bytes @ 0x20000000)  returns 0x00000001 (0001ms, 0768ms total)
T0C70 000:915 JLINK_Go() -- CPU_WriteMem(2 bytes @ 0x20000000) -- CPU_ReadMem(4 bytes @ 0xE0001000) -- CPU_WriteMem(4 bytes @ 0xE0002008) -- CPU_WriteMem(4 bytes @ 0xE000200C) -- CPU_WriteMem(4 bytes @ 0xE0002010) -- CPU_WriteMem(4 bytes @ 0xE0002014) -- CPU_WriteMem(4 bytes @ 0xE0002018) -- CPU_WriteMem(4 bytes @ 0xE000201C) -- CPU_WriteMem(4 bytes @ 0xE0001004) (0003ms, 0771ms total)
T0C70 000:918 JLINK_IsHalted() -- CPU_ReadMem(2 bytes @ 0x20000000)  returns TRUE (0002ms, 0773ms total)
T0C70 000:920 JLINK_ReadReg(R15 (PC))  returns 0x20000000 (0000ms, 0771ms total)
T0C70 000:920 JLINK_ClrBPEx(BPHandle = 0x00000001)  returns 0x00 (0000ms, 0771ms total)
T0C70 000:920 JLINK_ReadReg(R0)  returns 0x00000000 (0000ms, 0771ms total)
T0C70 000:921 JLINK_WriteReg(R0, 0x08000000)  returns 0x00 (0000ms, 0771ms total)
T0C70 000:921 JLINK_WriteReg(R1, 0x007A1200)  returns 0x00 (0000ms, 0771ms total)
T0C70 000:921 JLINK_WriteReg(R2, 0x00000001)  returns 0x00 (0000ms, 0771ms total)
T0C70 000:921 JLINK_WriteReg(R3, 0x00000000)  returns 0x00 (0000ms, 0771ms total)
T0C70 000:921 JLINK_WriteReg(R4, 0x00000000)  returns 0x00 (0000ms, 0771ms total)
T0C70 000:921 JLINK_WriteReg(R5, 0x00000000)  returns 0x00 (0000ms, 0771ms total)
T0C70 000:921 JLINK_WriteReg(R6, 0x00000000)  returns 0x00 (0000ms, 0771ms total)
T0C70 000:921 JLINK_WriteReg(R7, 0x00000000)  returns 0x00 (0000ms, 0771ms total)
T0C70 000:921 JLINK_WriteReg(R8, 0x00000000)  returns 0x00 (0000ms, 0771ms total)
T0C70 000:921 JLINK_WriteReg(R9, 0x20000160)  returns 0x00 (0000ms, 0771ms total)
T0C70 000:921 JLINK_WriteReg(R10, 0x00000000)  returns 0x00 (0000ms, 0771ms total)
T0C70 000:921 JLINK_WriteReg(R11, 0x00000000)  returns 0x00 (0000ms, 0771ms total)
T0C70 000:921 JLINK_WriteReg(R12, 0x00000000)  returns 0x00 (0000ms, 0771ms total)
T0C70 000:921 JLINK_WriteReg(R13 (SP), 0x20001000)  returns 0x00 (0000ms, 0771ms total)
T0C70 000:921 JLINK_WriteReg(R14, 0x20000001)  returns 0x00 (0000ms, 0771ms total)
T0C70 000:921 JLINK_WriteReg(R15 (PC), 0x2000007C)  returns 0x00 (0000ms, 0771ms total)
T0C70 000:921 JLINK_WriteReg(XPSR, 0x01000000)  returns 0x00 (0000ms, 0771ms total)
T0C70 000:921 JLINK_WriteReg(MSP, 0x20001000)  returns 0x00 (0000ms, 0771ms total)
T0C70 000:921 JLINK_WriteReg(PSP, 0x20001000)  returns 0x00 (0000ms, 0771ms total)
T0C70 000:921 JLINK_WriteReg(CFBP, 0x00000000)  returns 0x00 (0000ms, 0771ms total)
T0C70 000:921 JLINK_SetBPEx(Addr = 0x20000000, Type = 0xFFFFFFF2)  returns 0x00000002 (0000ms, 0771ms total)
T0C70 000:921 JLINK_Go() -- CPU_ReadMem(4 bytes @ 0xE0001000) (0001ms, 0772ms total)
T0C70 000:922 JLINK_IsHalted()  returns FALSE (0000ms, 0772ms total)
T0C70 001:014 JLINK_IsHalted() -- CPU_ReadMem(2 bytes @ 0x20000000)  returns TRUE (0002ms, 0774ms total)
T0C70 001:016 JLINK_ReadReg(R15 (PC))  returns 0x20000000 (0000ms, 0772ms total)
T0C70 001:016 JLINK_ClrBPEx(BPHandle = 0x00000002)  returns 0x00 (0000ms, 0772ms total)
T0C70 001:016 JLINK_ReadReg(R0)  returns 0x00000000 (0000ms, 0772ms total)
T0C70 001:067 JLINK_WriteReg(R0, 0x00000001)  returns 0x00 (0001ms, 0773ms total)
T0C70 001:068 JLINK_WriteReg(R1, 0x007A1200)  returns 0x00 (0000ms, 0773ms total)
T0C70 001:068 JLINK_WriteReg(R2, 0x00000001)  returns 0x00 (0000ms, 0773ms total)
T0C70 001:068 JLINK_WriteReg(R3, 0x00000000)  returns 0x00 (0000ms, 0773ms total)
T0C70 001:068 JLINK_WriteReg(R4, 0x00000000)  returns 0x00 (0000ms, 0773ms total)
T0C70 001:068 JLINK_WriteReg(R5, 0x00000000)  returns 0x00 (0000ms, 0773ms total)
T0C70 001:068 JLINK_WriteReg(R6, 0x00000000)  returns 0x00 (0000ms, 0773ms total)
T0C70 001:068 JLINK_WriteReg(R7, 0x00000000)  returns 0x00 (0000ms, 0773ms total)
T0C70 001:068 JLINK_WriteReg(R8, 0x00000000)  returns 0x00 (0000ms, 0773ms total)
T0C70 001:068 JLINK_WriteReg(R9, 0x20000160)  returns 0x00 (0000ms, 0773ms total)
T0C70 001:068 JLINK_WriteReg(R10, 0x00000000)  returns 0x00 (0000ms, 0773ms total)
T0C70 001:068 JLINK_WriteReg(R11, 0x00000000)  returns 0x00 (0000ms, 0773ms total)
T0C70 001:068 JLINK_WriteReg(R12, 0x00000000)  returns 0x00 (0000ms, 0773ms total)
T0C70 001:068 JLINK_WriteReg(R13 (SP), 0x20001000)  returns 0x00 (0000ms, 0773ms total)
T0C70 001:068 JLINK_WriteReg(R14, 0x20000001)  returns 0x00 (0000ms, 0773ms total)
T0C70 001:068 JLINK_WriteReg(R15 (PC), 0x2000006A)  returns 0x00 (0000ms, 0773ms total)
T0C70 001:068 JLINK_WriteReg(XPSR, 0x01000000)  returns 0x00 (0000ms, 0773ms total)
T0C70 001:068 JLINK_WriteReg(MSP, 0x20001000)  returns 0x00 (0000ms, 0773ms total)
T0C70 001:068 JLINK_WriteReg(PSP, 0x20001000)  returns 0x00 (0000ms, 0773ms total)
T0C70 001:068 JLINK_WriteReg(CFBP, 0x00000000)  returns 0x00 (0000ms, 0773ms total)
T0C70 001:068 JLINK_SetBPEx(Addr = 0x20000000, Type = 0xFFFFFFF2)  returns 0x00000003 (0000ms, 0773ms total)
T0C70 001:068 JLINK_Go() -- CPU_ReadMem(4 bytes @ 0xE0001000) (0001ms, 0774ms total)
T0C70 001:069 JLINK_IsHalted() -- CPU_ReadMem(2 bytes @ 0x20000000)  returns TRUE (0002ms, 0776ms total)
T0C70 001:071 JLINK_ReadReg(R15 (PC))  returns 0x20000000 (0000ms, 0774ms total)
T0C70 001:071 JLINK_ClrBPEx(BPHandle = 0x00000003)  returns 0x00 (0000ms, 0774ms total)
T0C70 001:071 JLINK_ReadReg(R0)  returns 0x00000000 (0000ms, 0774ms total)
T0C70 001:077 JLINK_WriteMem(0x20000000, 0x0164 Bytes, ...) - Data: 00 BE 0A E0 0D 78 2D 06 68 40 08 24 40 00 00 D3 ... -- CPU_WriteMem(356 bytes @ 0x20000000)  returns 0x164 (0002ms, 0776ms total)
T0C70 001:079 JLINK_WriteReg(R0, 0x08000000)  returns 0x00 (0000ms, 0776ms total)
T0C70 001:079 JLINK_WriteReg(R1, 0x007A1200)  returns 0x00 (0000ms, 0776ms total)
T0C70 001:079 JLINK_WriteReg(R2, 0x00000002)  returns 0x00 (0000ms, 0776ms total)
T0C70 001:079 JLINK_WriteReg(R3, 0x00000000)  returns 0x00 (0000ms, 0776ms total)
T0C70 001:079 JLINK_WriteReg(R4, 0x00000000)  returns 0x00 (0001ms, 0777ms total)
T0C70 001:080 JLINK_WriteReg(R5, 0x00000000)  returns 0x00 (0000ms, 0777ms total)
T0C70 001:080 JLINK_WriteReg(R6, 0x00000000)  returns 0x00 (0000ms, 0777ms total)
T0C70 001:080 JLINK_WriteReg(R7, 0x00000000)  returns 0x00 (0000ms, 0777ms total)
T0C70 001:080 JLINK_WriteReg(R8, 0x00000000)  returns 0x00 (0000ms, 0777ms total)
T0C70 001:080 JLINK_WriteReg(R9, 0x20000160)  returns 0x00 (0000ms, 0777ms total)
T0C70 001:080 JLINK_WriteReg(R10, 0x00000000)  returns 0x00 (0000ms, 0777ms total)
T0C70 001:080 JLINK_WriteReg(R11, 0x00000000)  returns 0x00 (0000ms, 0777ms total)
T0C70 001:080 JLINK_WriteReg(R12, 0x00000000)  returns 0x00 (0000ms, 0777ms total)
T0C70 001:080 JLINK_WriteReg(R13 (SP), 0x20001000)  returns 0x00 (0000ms, 0777ms total)
T0C70 001:080 JLINK_WriteReg(R14, 0x20000001)  returns 0x00 (0000ms, 0777ms total)
T0C70 001:080 JLINK_WriteReg(R15 (PC), 0x20000038)  returns 0x00 (0000ms, 0777ms total)
T0C70 001:080 JLINK_WriteReg(XPSR, 0x01000000)  returns 0x00 (0000ms, 0777ms total)
T0C70 001:080 JLINK_WriteReg(MSP, 0x20001000)  returns 0x00 (0000ms, 0777ms total)
T0C70 001:080 JLINK_WriteReg(PSP, 0x20001000)  returns 0x00 (0000ms, 0777ms total)
T0C70 001:080 JLINK_WriteReg(CFBP, 0x00000000)  returns 0x00 (0000ms, 0777ms total)
T0C70 001:080 JLINK_SetBPEx(Addr = 0x20000000, Type = 0xFFFFFFF2) -- CPU_ReadMem(2 bytes @ 0x20000000)  returns 0x00000004 (0000ms, 0777ms total)
T0C70 001:080 JLINK_Go() -- CPU_WriteMem(2 bytes @ 0x20000000) -- CPU_ReadMem(4 bytes @ 0xE0001000) (0002ms, 0779ms total)
T0C70 001:082 JLINK_IsHalted() -- CPU_ReadMem(2 bytes @ 0x20000000)  returns TRUE (0002ms, 0781ms total)
T0C70 001:084 JLINK_ReadReg(R15 (PC))  returns 0x20000000 (0000ms, 0779ms total)
T0C70 001:084 JLINK_ClrBPEx(BPHandle = 0x00000004)  returns 0x00 (0000ms, 0779ms total)
T0C70 001:084 JLINK_ReadReg(R0)  returns 0x00000000 (0000ms, 0779ms total)
T0C70 001:084 JLINK_WriteMem(0x20000164, 0x0400 Bytes, ...) - Data: 78 64 00 20 6D 0A 00 08 89 01 00 08 8B 01 00 08 ... -- CPU_WriteMem(1024 bytes @ 0x20000164)  returns 0x400 (0006ms, 0785ms total)
T0C70 001:090 JLINK_WriteReg(R0, 0x08000000)  returns 0x00 (0000ms, 0785ms total)
T0C70 001:090 JLINK_WriteReg(R1, 0x00000400)  returns 0x00 (0000ms, 0785ms total)
T0C70 001:090 JLINK_WriteReg(R2, 0x20000164)  returns 0x00 (0000ms, 0785ms total)
T0C70 001:090 JLINK_WriteReg(R3, 0x00000000)  returns 0x00 (0000ms, 0785ms total)
T0C70 001:090 JLINK_WriteReg(R4, 0x00000000)  returns 0x00 (0000ms, 0785ms total)
T0C70 001:090 JLINK_WriteReg(R5, 0x00000000)  returns 0x00 (0000ms, 0785ms total)
T0C70 001:090 JLINK_WriteReg(R6, 0x00000000)  returns 0x00 (0000ms, 0785ms total)
T0C70 001:090 JLINK_WriteReg(R7, 0x00000000)  returns 0x00 (0000ms, 0785ms total)
T0C70 001:090 JLINK_WriteReg(R8, 0x00000000)  returns 0x00 (0000ms, 0785ms total)
T0C70 001:090 JLINK_WriteReg(R9, 0x20000160)  returns 0x00 (0000ms, 0785ms total)
T0C70 001:090 JLINK_WriteReg(R10, 0x00000000)  returns 0x00 (0000ms, 0785ms total)
T0C70 001:090 JLINK_WriteReg(R11, 0x00000000)  returns 0x00 (0000ms, 0785ms total)
T0C70 001:090 JLINK_WriteReg(R12, 0x00000000)  returns 0x00 (0000ms, 0785ms total)
T0C70 001:090 JLINK_WriteReg(R13 (SP), 0x20001000)  returns 0x00 (0000ms, 0785ms total)
T0C70 001:090 JLINK_WriteReg(R14, 0x20000001)  returns 0x00 (0000ms, 0785ms total)
T0C70 001:090 JLINK_WriteReg(R15 (PC), 0x200000F4)  returns 0x00 (0000ms, 0785ms total)
T0C70 001:090 JLINK_WriteReg(XPSR, 0x01000000)  returns 0x00 (0000ms, 0785ms total)
T0C70 001:090 JLINK_WriteReg(MSP, 0x20001000)  returns 0x00 (0000ms, 0785ms total)
T0C70 001:090 JLINK_WriteReg(PSP, 0x20001000)  returns 0x00 (0000ms, 0785ms total)
T0C70 001:090 JLINK_WriteReg(CFBP, 0x00000000)  returns 0x00 (0000ms, 0785ms total)
T0C70 001:090 JLINK_SetBPEx(Addr = 0x20000000, Type = 0xFFFFFFF2)  returns 0x00000005 (0000ms, 0785ms total)
T0C70 001:090 JLINK_Go() -- CPU_ReadMem(4 bytes @ 0xE0001000) (0002ms, 0787ms total)
T0C70 001:092 JLINK_IsHalted()  returns FALSE (0000ms, 0787ms total)
T0C70 001:155 JLINK_IsHalted() -- CPU_ReadMem(2 bytes @ 0x20000000)  returns TRUE (0002ms, 0789ms total)
T0C70 001:157 JLINK_ReadReg(R15 (PC))  returns 0x20000000 (0000ms, 0787ms total)
T0C70 001:157 JLINK_ClrBPEx(BPHandle = 0x00000005)  returns 0x00 (0000ms, 0787ms total)
T0C70 001:157 JLINK_ReadReg(R0)  returns 0x00000000 (0000ms, 0787ms total)
T0C70 001:158 JLINK_WriteMem(0x20000164, 0x0400 Bytes, ...) - Data: 00 00 48 20 8D F8 03 00 69 46 66 48 00 F0 A0 FB ... -- CPU_WriteMem(1024 bytes @ 0x20000164)  returns 0x400 (0006ms, 0793ms total)
T0C70 001:164 JLINK_WriteReg(R0, 0x08000400)  returns 0x00 (0000ms, 0793ms total)
T0C70 001:164 JLINK_WriteReg(R1, 0x00000400)  returns 0x00 (0000ms, 0793ms total)
T0C70 001:164 JLINK_WriteReg(R2, 0x20000164)  returns 0x00 (0000ms, 0793ms total)
T0C70 001:164 JLINK_WriteReg(R3, 0x00000000)  returns 0x00 (0000ms, 0793ms total)
T0C70 001:164 JLINK_WriteReg(R4, 0x00000000)  returns 0x00 (0000ms, 0793ms total)
T0C70 001:164 JLINK_WriteReg(R5, 0x00000000)  returns 0x00 (0000ms, 0793ms total)
T0C70 001:164 JLINK_WriteReg(R6, 0x00000000)  returns 0x00 (0000ms, 0793ms total)
T0C70 001:164 JLINK_WriteReg(R7, 0x00000000)  returns 0x00 (0000ms, 0793ms total)
T0C70 001:164 JLINK_WriteReg(R8, 0x00000000)  returns 0x00 (0000ms, 0793ms total)
T0C70 001:164 JLINK_WriteReg(R9, 0x20000160)  returns 0x00 (0000ms, 0793ms total)
T0C70 001:164 JLINK_WriteReg(R10, 0x00000000)  returns 0x00 (0000ms, 0793ms total)
T0C70 001:164 JLINK_WriteReg(R11, 0x00000000)  returns 0x00 (0000ms, 0793ms total)
T0C70 001:164 JLINK_WriteReg(R12, 0x00000000)  returns 0x00 (0000ms, 0793ms total)
T0C70 001:164 JLINK_WriteReg(R13 (SP), 0x20001000)  returns 0x00 (0000ms, 0793ms total)
T0C70 001:164 JLINK_WriteReg(R14, 0x20000001)  returns 0x00 (0000ms, 0793ms total)
T0C70 001:164 JLINK_WriteReg(R15 (PC), 0x200000F4)  returns 0x00 (0000ms, 0793ms total)
T0C70 001:164 JLINK_WriteReg(XPSR, 0x01000000)  returns 0x00 (0000ms, 0793ms total)
T0C70 001:164 JLINK_WriteReg(MSP, 0x20001000)  returns 0x00 (0000ms, 0793ms total)
T0C70 001:164 JLINK_WriteReg(PSP, 0x20001000)  returns 0x00 (0000ms, 0793ms total)
T0C70 001:164 JLINK_WriteReg(CFBP, 0x00000000)  returns 0x00 (0000ms, 0793ms total)
T0C70 001:164 JLINK_SetBPEx(Addr = 0x20000000, Type = 0xFFFFFFF2)  returns 0x00000006 (0000ms, 0793ms total)
T0C70 001:164 JLINK_Go() -- CPU_ReadMem(4 bytes @ 0xE0001000) (0001ms, 0794ms total)
T0C70 001:165 JLINK_IsHalted()  returns FALSE (0001ms, 0795ms total)
T0C70 001:185 JLINK_IsHalted()  returns FALSE (0000ms, 0794ms total)
T0C70 001:187 JLINK_IsHalted()  returns FALSE (0000ms, 0794ms total)
T0C70 001:189 JLINK_IsHalted()  returns FALSE (0000ms, 0794ms total)
T0C70 001:191 JLINK_IsHalted()  returns FALSE (0000ms, 0794ms total)
T0C70 001:193 JLINK_IsHalted()  returns FALSE (0000ms, 0794ms total)
T0C70 001:199 JLINK_IsHalted() -- CPU_ReadMem(2 bytes @ 0x20000000)  returns TRUE (0002ms, 0796ms total)
T0C70 001:201 JLINK_ReadReg(R15 (PC))  returns 0x20000000 (0000ms, 0794ms total)
T0C70 001:201 JLINK_ClrBPEx(BPHandle = 0x00000006)  returns 0x00 (0000ms, 0794ms total)
T0C70 001:201 JLINK_ReadReg(R0)  returns 0x00000000 (0000ms, 0794ms total)
T0C70 001:201 JLINK_WriteMem(0x20000164, 0x0400 Bytes, ...) - Data: 40 01 00 29 F9 D0 57 49 09 1D 08 80 70 47 00 B5 ... -- CPU_WriteMem(1024 bytes @ 0x20000164)  returns 0x400 (0006ms, 0800ms total)
T0C70 001:207 JLINK_WriteReg(R0, 0x08000800)  returns 0x00 (0000ms, 0800ms total)
T0C70 001:207 JLINK_WriteReg(R1, 0x00000400)  returns 0x00 (0000ms, 0800ms total)
T0C70 001:207 JLINK_WriteReg(R2, 0x20000164)  returns 0x00 (0000ms, 0800ms total)
T0C70 001:207 JLINK_WriteReg(R3, 0x00000000)  returns 0x00 (0000ms, 0800ms total)
T0C70 001:207 JLINK_WriteReg(R4, 0x00000000)  returns 0x00 (0000ms, 0800ms total)
T0C70 001:207 JLINK_WriteReg(R5, 0x00000000)  returns 0x00 (0000ms, 0800ms total)
T0C70 001:207 JLINK_WriteReg(R6, 0x00000000)  returns 0x00 (0000ms, 0800ms total)
T0C70 001:207 JLINK_WriteReg(R7, 0x00000000)  returns 0x00 (0000ms, 0800ms total)
T0C70 001:207 JLINK_WriteReg(R8, 0x00000000)  returns 0x00 (0000ms, 0800ms total)
T0C70 001:207 JLINK_WriteReg(R9, 0x20000160)  returns 0x00 (0001ms, 0801ms total)
T0C70 001:208 JLINK_WriteReg(R10, 0x00000000)  returns 0x00 (0000ms, 0801ms total)
T0C70 001:208 JLINK_WriteReg(R11, 0x00000000)  returns 0x00 (0000ms, 0801ms total)
T0C70 001:208 JLINK_WriteReg(R12, 0x00000000)  returns 0x00 (0000ms, 0801ms total)
T0C70 001:208 JLINK_WriteReg(R13 (SP), 0x20001000)  returns 0x00 (0000ms, 0801ms total)
T0C70 001:208 JLINK_WriteReg(R14, 0x20000001)  returns 0x00 (0000ms, 0801ms total)
T0C70 001:208 JLINK_WriteReg(R15 (PC), 0x200000F4)  returns 0x00 (0000ms, 0801ms total)
T0C70 001:208 JLINK_WriteReg(XPSR, 0x01000000)  returns 0x00 (0000ms, 0801ms total)
T0C70 001:208 JLINK_WriteReg(MSP, 0x20001000)  returns 0x00 (0000ms, 0801ms total)
T0C70 001:208 JLINK_WriteReg(PSP, 0x20001000)  returns 0x00 (0000ms, 0801ms total)
T0C70 001:208 JLINK_WriteReg(CFBP, 0x00000000)  returns 0x00 (0000ms, 0801ms total)
T0C70 001:208 JLINK_SetBPEx(Addr = 0x20000000, Type = 0xFFFFFFF2)  returns 0x00000007 (0000ms, 0801ms total)
T0C70 001:208 JLINK_Go() -- CPU_ReadMem(4 bytes @ 0xE0001000) (0001ms, 0802ms total)
T0C70 001:209 JLINK_IsHalted()  returns FALSE (0000ms, 0802ms total)
T0C70 001:211 JLINK_IsHalted()  returns FALSE (0000ms, 0802ms total)
T0C70 001:213 JLINK_IsHalted()  returns FALSE (0000ms, 0802ms total)
T0C70 001:215 JLINK_IsHalted()  returns FALSE (0000ms, 0802ms total)
T0C70 001:217 JLINK_IsHalted()  returns FALSE (0000ms, 0802ms total)
T0C70 001:219 JLINK_IsHalted()  returns FALSE (0000ms, 0802ms total)
T0C70 001:221 JLINK_IsHalted()  returns FALSE (0000ms, 0802ms total)
T0C70 001:223 JLINK_IsHalted()  returns FALSE (0000ms, 0802ms total)
T0C70 001:225 JLINK_IsHalted()  returns FALSE (0000ms, 0802ms total)
T0C70 001:231 JLINK_IsHalted()  returns FALSE (0000ms, 0802ms total)
T0C70 001:233 JLINK_IsHalted()  returns FALSE (0000ms, 0802ms total)
T0C70 001:235 JLINK_IsHalted()  returns FALSE (0000ms, 0802ms total)
T0C70 001:237 JLINK_IsHalted()  returns FALSE (0000ms, 0802ms total)
T0C70 001:279 JLINK_IsHalted() -- CPU_ReadMem(2 bytes @ 0x20000000)  returns TRUE (0002ms, 0804ms total)
T0C70 001:281 JLINK_ReadReg(R15 (PC))  returns 0x20000000 (0000ms, 0802ms total)
T0C70 001:281 JLINK_ClrBPEx(BPHandle = 0x00000007)  returns 0x00 (0000ms, 0802ms total)
T0C70 001:281 JLINK_ReadReg(R0)  returns 0x00000000 (0000ms, 0802ms total)
T0C70 001:282 JLINK_WriteMem(0x20000164, 0x0400 Bytes, ...) - Data: 08 0C 4F F0 01 08 08 FA 0C F3 B1 F8 00 C0 0C EA ... -- CPU_WriteMem(1024 bytes @ 0x20000164)  returns 0x400 (0006ms, 0808ms total)
T0C70 001:288 JLINK_WriteReg(R0, 0x08000C00)  returns 0x00 (0000ms, 0808ms total)
T0C70 001:288 JLINK_WriteReg(R1, 0x00000400)  returns 0x00 (0000ms, 0808ms total)
T0C70 001:288 JLINK_WriteReg(R2, 0x20000164)  returns 0x00 (0000ms, 0808ms total)
T0C70 001:288 JLINK_WriteReg(R3, 0x00000000)  returns 0x00 (0000ms, 0808ms total)
T0C70 001:288 JLINK_WriteReg(R4, 0x00000000)  returns 0x00 (0000ms, 0808ms total)
T0C70 001:288 JLINK_WriteReg(R5, 0x00000000)  returns 0x00 (0000ms, 0808ms total)
T0C70 001:288 JLINK_WriteReg(R6, 0x00000000)  returns 0x00 (0000ms, 0808ms total)
T0C70 001:288 JLINK_WriteReg(R7, 0x00000000)  returns 0x00 (0000ms, 0808ms total)
T0C70 001:288 JLINK_WriteReg(R8, 0x00000000)  returns 0x00 (0000ms, 0808ms total)
T0C70 001:288 JLINK_WriteReg(R9, 0x20000160)  returns 0x00 (0000ms, 0808ms total)
T0C70 001:288 JLINK_WriteReg(R10, 0x00000000)  returns 0x00 (0000ms, 0808ms total)
T0C70 001:288 JLINK_WriteReg(R11, 0x00000000)  returns 0x00 (0000ms, 0808ms total)
T0C70 001:288 JLINK_WriteReg(R12, 0x00000000)  returns 0x00 (0000ms, 0808ms total)
T0C70 001:288 JLINK_WriteReg(R13 (SP), 0x20001000)  returns 0x00 (0000ms, 0808ms total)
T0C70 001:288 JLINK_WriteReg(R14, 0x20000001)  returns 0x00 (0000ms, 0808ms total)
T0C70 001:288 JLINK_WriteReg(R15 (PC), 0x200000F4)  returns 0x00 (0000ms, 0808ms total)
T0C70 001:288 JLINK_WriteReg(XPSR, 0x01000000)  returns 0x00 (0000ms, 0808ms total)
T0C70 001:288 JLINK_WriteReg(MSP, 0x20001000)  returns 0x00 (0000ms, 0808ms total)
T0C70 001:288 JLINK_WriteReg(PSP, 0x20001000)  returns 0x00 (0000ms, 0808ms total)
T0C70 001:288 JLINK_WriteReg(CFBP, 0x00000000)  returns 0x00 (0000ms, 0808ms total)
T0C70 001:288 JLINK_SetBPEx(Addr = 0x20000000, Type = 0xFFFFFFF2)  returns 0x00000008 (0000ms, 0808ms total)
T0C70 001:288 JLINK_Go() -- CPU_ReadMem(4 bytes @ 0xE0001000) (0002ms, 0810ms total)
T0C70 001:290 JLINK_IsHalted()  returns FALSE (0000ms, 0810ms total)
T0C70 001:292 JLINK_IsHalted()  returns FALSE (0000ms, 0810ms total)
T0C70 001:294 JLINK_IsHalted()  returns FALSE (0000ms, 0810ms total)
T0C70 001:296 JLINK_IsHalted()  returns FALSE (0000ms, 0810ms total)
T0C70 001:298 JLINK_IsHalted()  returns FALSE (0000ms, 0810ms total)
T0C70 001:300 JLINK_IsHalted()  returns FALSE (0000ms, 0810ms total)
T0C70 001:302 JLINK_IsHalted()  returns FALSE (0000ms, 0810ms total)
T0C70 001:304 JLINK_IsHalted()  returns FALSE (0000ms, 0810ms total)
T0C70 001:306 JLINK_IsHalted()  returns FALSE (0000ms, 0810ms total)
T0C70 001:308 JLINK_IsHalted()  returns FALSE (0000ms, 0810ms total)
T0C70 001:310 JLINK_IsHalted()  returns FALSE (0000ms, 0810ms total)
T0C70 001:312 JLINK_IsHalted()  returns FALSE (0000ms, 0810ms total)
T0C70 001:314 JLINK_IsHalted()  returns FALSE (0000ms, 0810ms total)
T0C70 001:316 JLINK_IsHalted()  returns FALSE (0000ms, 0810ms total)
T0C70 001:318 JLINK_IsHalted()  returns FALSE (0000ms, 0810ms total)
T0C70 001:320 JLINK_IsHalted()  returns FALSE (0000ms, 0810ms total)
T0C70 001:322 JLINK_IsHalted() -- CPU_ReadMem(2 bytes @ 0x20000000)  returns TRUE (0002ms, 0812ms total)
T0C70 001:324 JLINK_ReadReg(R15 (PC))  returns 0x20000000 (0000ms, 0810ms total)
T0C70 001:324 JLINK_ClrBPEx(BPHandle = 0x00000008)  returns 0x00 (0000ms, 0810ms total)
T0C70 001:324 JLINK_ReadReg(R0)  returns 0x00000000 (0000ms, 0810ms total)
T0C70 001:324 JLINK_WriteMem(0x20000164, 0x0400 Bytes, ...) - Data: 21 B1 04 29 05 D0 08 29 23 D1 05 E0 5C 4D 05 60 ... -- CPU_WriteMem(1024 bytes @ 0x20000164)  returns 0x400 (0005ms, 0815ms total)
T0C70 001:329 JLINK_WriteReg(R0, 0x08001000)  returns 0x00 (0000ms, 0815ms total)
T0C70 001:329 JLINK_WriteReg(R1, 0x00000400)  returns 0x00 (0000ms, 0815ms total)
T0C70 001:329 JLINK_WriteReg(R2, 0x20000164)  returns 0x00 (0000ms, 0815ms total)
T0C70 001:329 JLINK_WriteReg(R3, 0x00000000)  returns 0x00 (0000ms, 0815ms total)
T0C70 001:329 JLINK_WriteReg(R4, 0x00000000)  returns 0x00 (0000ms, 0815ms total)
T0C70 001:329 JLINK_WriteReg(R5, 0x00000000)  returns 0x00 (0000ms, 0815ms total)
T0C70 001:329 JLINK_WriteReg(R6, 0x00000000)  returns 0x00 (0000ms, 0815ms total)
T0C70 001:329 JLINK_WriteReg(R7, 0x00000000)  returns 0x00 (0000ms, 0815ms total)
T0C70 001:329 JLINK_WriteReg(R8, 0x00000000)  returns 0x00 (0000ms, 0815ms total)
T0C70 001:329 JLINK_WriteReg(R9, 0x20000160)  returns 0x00 (0000ms, 0815ms total)
T0C70 001:329 JLINK_WriteReg(R10, 0x00000000)  returns 0x00 (0000ms, 0815ms total)
T0C70 001:329 JLINK_WriteReg(R11, 0x00000000)  returns 0x00 (0000ms, 0815ms total)
T0C70 001:329 JLINK_WriteReg(R12, 0x00000000)  returns 0x00 (0000ms, 0815ms total)
T0C70 001:329 JLINK_WriteReg(R13 (SP), 0x20001000)  returns 0x00 (0000ms, 0815ms total)
T0C70 001:329 JLINK_WriteReg(R14, 0x20000001)  returns 0x00 (0000ms, 0815ms total)
T0C70 001:329 JLINK_WriteReg(R15 (PC), 0x200000F4)  returns 0x00 (0000ms, 0815ms total)
T0C70 001:329 JLINK_WriteReg(XPSR, 0x01000000)  returns 0x00 (0000ms, 0815ms total)
T0C70 001:329 JLINK_WriteReg(MSP, 0x20001000)  returns 0x00 (0000ms, 0815ms total)
T0C70 001:329 JLINK_WriteReg(PSP, 0x20001000)  returns 0x00 (0000ms, 0815ms total)
T0C70 001:329 JLINK_WriteReg(CFBP, 0x00000000)  returns 0x00 (0000ms, 0815ms total)
T0C70 001:329 JLINK_SetBPEx(Addr = 0x20000000, Type = 0xFFFFFFF2)  returns 0x00000009 (0000ms, 0815ms total)
T0C70 001:329 JLINK_Go() -- CPU_ReadMem(4 bytes @ 0xE0001000) (0002ms, 0817ms total)
T0C70 001:331 JLINK_IsHalted()  returns FALSE (0000ms, 0817ms total)
T0C70 001:333 JLINK_IsHalted()  returns FALSE (0000ms, 0817ms total)
T0C70 001:335 JLINK_IsHalted()  returns FALSE (0000ms, 0817ms total)
T0C70 001:337 JLINK_IsHalted()  returns FALSE (0000ms, 0817ms total)
T0C70 001:339 JLINK_IsHalted()  returns FALSE (0000ms, 0817ms total)
T0C70 001:341 JLINK_IsHalted()  returns FALSE (0000ms, 0817ms total)
T0C70 001:343 JLINK_IsHalted()  returns FALSE (0000ms, 0817ms total)
T0C70 001:345 JLINK_IsHalted()  returns FALSE (0000ms, 0817ms total)
T0C70 001:348 JLINK_IsHalted()  returns FALSE (0000ms, 0817ms total)
T0C70 001:350 JLINK_IsHalted()  returns FALSE (0000ms, 0817ms total)
T0C70 001:351 JLINK_IsHalted()  returns FALSE (0000ms, 0817ms total)
T0C70 001:391 JLINK_IsHalted() -- CPU_ReadMem(2 bytes @ 0x20000000)  returns TRUE (0002ms, 0819ms total)
T0C70 001:393 JLINK_ReadReg(R15 (PC))  returns 0x20000000 (0000ms, 0817ms total)
T0C70 001:393 JLINK_ClrBPEx(BPHandle = 0x00000009)  returns 0x00 (0000ms, 0817ms total)
T0C70 001:393 JLINK_ReadReg(R0)  returns 0x00000000 (0000ms, 0817ms total)
T0C70 001:393 JLINK_WriteMem(0x20000164, 0x0400 Bytes, ...) - Data: FF 73 1A 40 02 82 70 47 C1 F3 08 02 82 80 70 47 ... -- CPU_WriteMem(1024 bytes @ 0x20000164)  returns 0x400 (0007ms, 0824ms total)
T0C70 001:400 JLINK_WriteReg(R0, 0x08001400)  returns 0x00 (0000ms, 0824ms total)
T0C70 001:400 JLINK_WriteReg(R1, 0x00000400)  returns 0x00 (0000ms, 0824ms total)
T0C70 001:400 JLINK_WriteReg(R2, 0x20000164)  returns 0x00 (0000ms, 0824ms total)
T0C70 001:400 JLINK_WriteReg(R3, 0x00000000)  returns 0x00 (0000ms, 0824ms total)
T0C70 001:400 JLINK_WriteReg(R4, 0x00000000)  returns 0x00 (0000ms, 0824ms total)
T0C70 001:400 JLINK_WriteReg(R5, 0x00000000)  returns 0x00 (0000ms, 0824ms total)
T0C70 001:400 JLINK_WriteReg(R6, 0x00000000)  returns 0x00 (0000ms, 0824ms total)
T0C70 001:400 JLINK_WriteReg(R7, 0x00000000)  returns 0x00 (0000ms, 0824ms total)
T0C70 001:400 JLINK_WriteReg(R8, 0x00000000)  returns 0x00 (0000ms, 0824ms total)
T0C70 001:400 JLINK_WriteReg(R9, 0x20000160)  returns 0x00 (0000ms, 0824ms total)
T0C70 001:400 JLINK_WriteReg(R10, 0x00000000)  returns 0x00 (0000ms, 0824ms total)
T0C70 001:400 JLINK_WriteReg(R11, 0x00000000)  returns 0x00 (0000ms, 0824ms total)
T0C70 001:400 JLINK_WriteReg(R12, 0x00000000)  returns 0x00 (0000ms, 0824ms total)
T0C70 001:400 JLINK_WriteReg(R13 (SP), 0x20001000)  returns 0x00 (0000ms, 0824ms total)
T0C70 001:400 JLINK_WriteReg(R14, 0x20000001)  returns 0x00 (0000ms, 0824ms total)
T0C70 001:400 JLINK_WriteReg(R15 (PC), 0x200000F4)  returns 0x00 (0000ms, 0824ms total)
T0C70 001:400 JLINK_WriteReg(XPSR, 0x01000000)  returns 0x00 (0000ms, 0824ms total)
T0C70 001:400 JLINK_WriteReg(MSP, 0x20001000)  returns 0x00 (0000ms, 0824ms total)
T0C70 001:400 JLINK_WriteReg(PSP, 0x20001000)  returns 0x00 (0000ms, 0824ms total)
T0C70 001:400 JLINK_WriteReg(CFBP, 0x00000000)  returns 0x00 (0000ms, 0824ms total)
T0C70 001:400 JLINK_SetBPEx(Addr = 0x20000000, Type = 0xFFFFFFF2)  returns 0x0000000A (0000ms, 0824ms total)
T0C70 001:400 JLINK_Go() -- CPU_ReadMem(4 bytes @ 0xE0001000) (0001ms, 0825ms total)
T0C70 001:401 JLINK_IsHalted()  returns FALSE (0000ms, 0825ms total)
T0C70 001:403 JLINK_IsHalted()  returns FALSE (0000ms, 0825ms total)
T0C70 001:405 JLINK_IsHalted()  returns FALSE (0000ms, 0825ms total)
T0C70 001:407 JLINK_IsHalted()  returns FALSE (0000ms, 0825ms total)
T0C70 001:409 JLINK_IsHalted()  returns FALSE (0000ms, 0825ms total)
T0C70 001:411 JLINK_IsHalted()  returns FALSE (0000ms, 0825ms total)
T0C70 001:413 JLINK_IsHalted()  returns FALSE (0000ms, 0825ms total)
T0C70 001:415 JLINK_IsHalted()  returns FALSE (0000ms, 0825ms total)
T0C70 001:417 JLINK_IsHalted()  returns FALSE (0000ms, 0825ms total)
T0C70 001:419 JLINK_IsHalted()  returns FALSE (0000ms, 0825ms total)
T0C70 001:421 JLINK_IsHalted()  returns FALSE (0000ms, 0825ms total)
T0C70 001:423 JLINK_IsHalted()  returns FALSE (0000ms, 0825ms total)
T0C70 001:425 JLINK_IsHalted()  returns FALSE (0000ms, 0825ms total)
T0C70 001:427 JLINK_IsHalted()  returns FALSE (0000ms, 0825ms total)
T0C70 001:429 JLINK_IsHalted()  returns FALSE (0000ms, 0825ms total)
T0C70 001:431 JLINK_IsHalted()  returns FALSE (0000ms, 0825ms total)
T0C70 001:433 JLINK_IsHalted() -- CPU_ReadMem(2 bytes @ 0x20000000)  returns TRUE (0002ms, 0827ms total)
T0C70 001:435 JLINK_ReadReg(R15 (PC))  returns 0x20000000 (0000ms, 0825ms total)
T0C70 001:435 JLINK_ClrBPEx(BPHandle = 0x0000000A)  returns 0x00 (0000ms, 0825ms total)
T0C70 001:435 JLINK_ReadReg(R0)  returns 0x00000000 (0000ms, 0825ms total)
T0C70 001:435 JLINK_WriteMem(0x20000164, 0x0400 Bytes, ...) - Data: 02 21 81 60 00 21 81 81 70 47 21 B1 02 88 42 F0 ... -- CPU_WriteMem(1024 bytes @ 0x20000164)  returns 0x400 (0006ms, 0831ms total)
T0C70 001:441 JLINK_WriteReg(R0, 0x08001800)  returns 0x00 (0000ms, 0831ms total)
T0C70 001:441 JLINK_WriteReg(R1, 0x00000400)  returns 0x00 (0000ms, 0831ms total)
T0C70 001:441 JLINK_WriteReg(R2, 0x20000164)  returns 0x00 (0000ms, 0831ms total)
T0C70 001:441 JLINK_WriteReg(R3, 0x00000000)  returns 0x00 (0000ms, 0831ms total)
T0C70 001:441 JLINK_WriteReg(R4, 0x00000000)  returns 0x00 (0000ms, 0831ms total)
T0C70 001:441 JLINK_WriteReg(R5, 0x00000000)  returns 0x00 (0000ms, 0831ms total)
T0C70 001:441 JLINK_WriteReg(R6, 0x00000000)  returns 0x00 (0000ms, 0831ms total)
T0C70 001:441 JLINK_WriteReg(R7, 0x00000000)  returns 0x00 (0000ms, 0831ms total)
T0C70 001:441 JLINK_WriteReg(R8, 0x00000000)  returns 0x00 (0000ms, 0831ms total)
T0C70 001:441 JLINK_WriteReg(R9, 0x20000160)  returns 0x00 (0000ms, 0831ms total)
T0C70 001:441 JLINK_WriteReg(R10, 0x00000000)  returns 0x00 (0000ms, 0831ms total)
T0C70 001:441 JLINK_WriteReg(R11, 0x00000000)  returns 0x00 (0000ms, 0831ms total)
T0C70 001:441 JLINK_WriteReg(R12, 0x00000000)  returns 0x00 (0000ms, 0831ms total)
T0C70 001:441 JLINK_WriteReg(R13 (SP), 0x20001000)  returns 0x00 (0000ms, 0831ms total)
T0C70 001:441 JLINK_WriteReg(R14, 0x20000001)  returns 0x00 (0000ms, 0831ms total)
T0C70 001:442 JLINK_WriteReg(R15 (PC), 0x200000F4)  returns 0x00 (0000ms, 0832ms total)
T0C70 001:442 JLINK_WriteReg(XPSR, 0x01000000)  returns 0x00 (0000ms, 0832ms total)
T0C70 001:442 JLINK_WriteReg(MSP, 0x20001000)  returns 0x00 (0000ms, 0832ms total)
T0C70 001:442 JLINK_WriteReg(PSP, 0x20001000)  returns 0x00 (0000ms, 0832ms total)
T0C70 001:442 JLINK_WriteReg(CFBP, 0x00000000)  returns 0x00 (0000ms, 0832ms total)
T0C70 001:442 JLINK_SetBPEx(Addr = 0x20000000, Type = 0xFFFFFFF2)  returns 0x0000000B (0000ms, 0832ms total)
T0C70 001:442 JLINK_Go() -- CPU_ReadMem(4 bytes @ 0xE0001000) (0001ms, 0833ms total)
T0C70 001:443 JLINK_IsHalted()  returns FALSE (0000ms, 0833ms total)
T0C70 001:445 JLINK_IsHalted()  returns FALSE (0000ms, 0833ms total)
T0C70 001:447 JLINK_IsHalted()  returns FALSE (0000ms, 0833ms total)
T0C70 001:449 JLINK_IsHalted()  returns FALSE (0000ms, 0833ms total)
T0C70 001:451 JLINK_IsHalted()  returns FALSE (0000ms, 0833ms total)
T0C70 001:453 JLINK_IsHalted()  returns FALSE (0000ms, 0833ms total)
T0C70 001:455 JLINK_IsHalted()  returns FALSE (0000ms, 0833ms total)
T0C70 001:457 JLINK_IsHalted()  returns FALSE (0000ms, 0833ms total)
T0C70 001:502 JLINK_IsHalted() -- CPU_ReadMem(2 bytes @ 0x20000000)  returns TRUE (0002ms, 0835ms total)
T0C70 001:504 JLINK_ReadReg(R15 (PC))  returns 0x20000000 (0000ms, 0833ms total)
T0C70 001:504 JLINK_ClrBPEx(BPHandle = 0x0000000B)  returns 0x00 (0000ms, 0833ms total)
T0C70 001:504 JLINK_ReadReg(R0)  returns 0x00000000 (0000ms, 0833ms total)
T0C70 001:507 JLINK_WriteMem(0x20000164, 0x0400 Bytes, ...) - Data: 00 BF 00 20 67 E7 10 B5 04 46 20 46 FE F7 11 FE ... -- CPU_WriteMem(1024 bytes @ 0x20000164)  returns 0x400 (0006ms, 0839ms total)
T0C70 001:513 JLINK_WriteReg(R0, 0x08001C00)  returns 0x00 (0000ms, 0839ms total)
T0C70 001:513 JLINK_WriteReg(R1, 0x00000400)  returns 0x00 (0000ms, 0839ms total)
T0C70 001:513 JLINK_WriteReg(R2, 0x20000164)  returns 0x00 (0000ms, 0839ms total)
T0C70 001:513 JLINK_WriteReg(R3, 0x00000000)  returns 0x00 (0000ms, 0839ms total)
T0C70 001:513 JLINK_WriteReg(R4, 0x00000000)  returns 0x00 (0000ms, 0839ms total)
T0C70 001:513 JLINK_WriteReg(R5, 0x00000000)  returns 0x00 (0000ms, 0839ms total)
T0C70 001:513 JLINK_WriteReg(R6, 0x00000000)  returns 0x00 (0000ms, 0839ms total)
T0C70 001:513 JLINK_WriteReg(R7, 0x00000000)  returns 0x00 (0000ms, 0839ms total)
T0C70 001:513 JLINK_WriteReg(R8, 0x00000000)  returns 0x00 (0000ms, 0839ms total)
T0C70 001:513 JLINK_WriteReg(R9, 0x20000160)  returns 0x00 (0000ms, 0839ms total)
T0C70 001:513 JLINK_WriteReg(R10, 0x00000000)  returns 0x00 (0000ms, 0839ms total)
T0C70 001:513 JLINK_WriteReg(R11, 0x00000000)  returns 0x00 (0000ms, 0839ms total)
T0C70 001:513 JLINK_WriteReg(R12, 0x00000000)  returns 0x00 (0000ms, 0839ms total)
T0C70 001:513 JLINK_WriteReg(R13 (SP), 0x20001000)  returns 0x00 (0000ms, 0839ms total)
T0C70 001:513 JLINK_WriteReg(R14, 0x20000001)  returns 0x00 (0000ms, 0839ms total)
T0C70 001:513 JLINK_WriteReg(R15 (PC), 0x200000F4)  returns 0x00 (0000ms, 0839ms total)
T0C70 001:513 JLINK_WriteReg(XPSR, 0x01000000)  returns 0x00 (0000ms, 0839ms total)
T0C70 001:513 JLINK_WriteReg(MSP, 0x20001000)  returns 0x00 (0000ms, 0839ms total)
T0C70 001:513 JLINK_WriteReg(PSP, 0x20001000)  returns 0x00 (0000ms, 0839ms total)
T0C70 001:513 JLINK_WriteReg(CFBP, 0x00000000)  returns 0x00 (0000ms, 0839ms total)
T0C70 001:513 JLINK_SetBPEx(Addr = 0x20000000, Type = 0xFFFFFFF2)  returns 0x0000000C (0000ms, 0839ms total)
T0C70 001:513 JLINK_Go() -- CPU_ReadMem(4 bytes @ 0xE0001000) (0002ms, 0841ms total)
T0C70 001:515 JLINK_IsHalted()  returns FALSE (0000ms, 0841ms total)
T0C70 001:518 JLINK_IsHalted()  returns FALSE (0000ms, 0841ms total)
T0C70 001:520 JLINK_IsHalted()  returns FALSE (0000ms, 0841ms total)
T0C70 001:522 JLINK_IsHalted()  returns FALSE (0000ms, 0841ms total)
T0C70 001:527 JLINK_IsHalted()  returns FALSE (0000ms, 0841ms total)
T0C70 001:529 JLINK_IsHalted()  returns FALSE (0000ms, 0841ms total)
T0C70 001:531 JLINK_IsHalted()  returns FALSE (0000ms, 0841ms total)
T0C70 001:534 JLINK_IsHalted()  returns FALSE (0000ms, 0841ms total)
T0C70 001:536 JLINK_IsHalted()  returns FALSE (0000ms, 0841ms total)
T0C70 001:538 JLINK_IsHalted()  returns FALSE (0000ms, 0841ms total)
T0C70 001:543 JLINK_IsHalted()  returns FALSE (0000ms, 0841ms total)
T0C70 001:545 JLINK_IsHalted()  returns FALSE (0000ms, 0841ms total)
T0C70 001:547 JLINK_IsHalted() -- CPU_ReadMem(2 bytes @ 0x20000000)  returns TRUE (0002ms, 0843ms total)
T0C70 001:549 JLINK_ReadReg(R15 (PC))  returns 0x20000000 (0000ms, 0841ms total)
T0C70 001:549 JLINK_ClrBPEx(BPHandle = 0x0000000C)  returns 0x00 (0000ms, 0841ms total)
T0C70 001:549 JLINK_ReadReg(R0)  returns 0x00000000 (0000ms, 0841ms total)
T0C70 001:549 JLINK_WriteMem(0x20000164, 0x0400 Bytes, ...) - Data: 04 1C 88 42 E5 D3 00 20 20 70 96 48 D0 F8 04 2C ... -- CPU_WriteMem(1024 bytes @ 0x20000164)  returns 0x400 (0006ms, 0847ms total)
T0C70 001:555 JLINK_WriteReg(R0, 0x08002000)  returns 0x00 (0000ms, 0847ms total)
T0C70 001:555 JLINK_WriteReg(R1, 0x00000400)  returns 0x00 (0000ms, 0847ms total)
T0C70 001:555 JLINK_WriteReg(R2, 0x20000164)  returns 0x00 (0000ms, 0847ms total)
T0C70 001:555 JLINK_WriteReg(R3, 0x00000000)  returns 0x00 (0000ms, 0847ms total)
T0C70 001:555 JLINK_WriteReg(R4, 0x00000000)  returns 0x00 (0000ms, 0847ms total)
T0C70 001:555 JLINK_WriteReg(R5, 0x00000000)  returns 0x00 (0000ms, 0847ms total)
T0C70 001:555 JLINK_WriteReg(R6, 0x00000000)  returns 0x00 (0000ms, 0847ms total)
T0C70 001:555 JLINK_WriteReg(R7, 0x00000000)  returns 0x00 (0000ms, 0847ms total)
T0C70 001:555 JLINK_WriteReg(R8, 0x00000000)  returns 0x00 (0000ms, 0847ms total)
T0C70 001:555 JLINK_WriteReg(R9, 0x20000160)  returns 0x00 (0000ms, 0847ms total)
T0C70 001:555 JLINK_WriteReg(R10, 0x00000000)  returns 0x00 (0000ms, 0847ms total)
T0C70 001:555 JLINK_WriteReg(R11, 0x00000000)  returns 0x00 (0000ms, 0847ms total)
T0C70 001:555 JLINK_WriteReg(R12, 0x00000000)  returns 0x00 (0000ms, 0847ms total)
T0C70 001:555 JLINK_WriteReg(R13 (SP), 0x20001000)  returns 0x00 (0000ms, 0847ms total)
T0C70 001:555 JLINK_WriteReg(R14, 0x20000001)  returns 0x00 (0000ms, 0847ms total)
T0C70 001:555 JLINK_WriteReg(R15 (PC), 0x200000F4)  returns 0x00 (0000ms, 0847ms total)
T0C70 001:555 JLINK_WriteReg(XPSR, 0x01000000)  returns 0x00 (0000ms, 0847ms total)
T0C70 001:555 JLINK_WriteReg(MSP, 0x20001000)  returns 0x00 (0000ms, 0847ms total)
T0C70 001:555 JLINK_WriteReg(PSP, 0x20001000)  returns 0x00 (0000ms, 0847ms total)
T0C70 001:555 JLINK_WriteReg(CFBP, 0x00000000)  returns 0x00 (0000ms, 0847ms total)
T0C70 001:555 JLINK_SetBPEx(Addr = 0x20000000, Type = 0xFFFFFFF2)  returns 0x0000000D (0000ms, 0847ms total)
T0C70 001:555 JLINK_Go() -- CPU_ReadMem(4 bytes @ 0xE0001000) (0002ms, 0849ms total)
T0C70 001:557 JLINK_IsHalted()  returns FALSE (0000ms, 0849ms total)
T0C70 001:560 JLINK_IsHalted()  returns FALSE (0000ms, 0849ms total)
T0C70 001:562 JLINK_IsHalted()  returns FALSE (0000ms, 0849ms total)
T0C70 001:565 JLINK_IsHalted()  returns FALSE (0000ms, 0849ms total)
T0C70 001:567 JLINK_IsHalted()  returns FALSE (0000ms, 0849ms total)
T0C70 001:622 JLINK_IsHalted() -- CPU_ReadMem(2 bytes @ 0x20000000)  returns TRUE (0002ms, 0851ms total)
T0C70 001:624 JLINK_ReadReg(R15 (PC))  returns 0x20000000 (0000ms, 0849ms total)
T0C70 001:624 JLINK_ClrBPEx(BPHandle = 0x0000000D)  returns 0x00 (0000ms, 0849ms total)
T0C70 001:624 JLINK_ReadReg(R0)  returns 0x00000000 (0000ms, 0849ms total)
T0C70 001:625 JLINK_WriteMem(0x20000164, 0x0400 Bytes, ...) - Data: 6F 6E 66 69 67 00 00 00 64 61 74 61 2E 52 75 6E ... -- CPU_WriteMem(1024 bytes @ 0x20000164)  returns 0x400 (0006ms, 0855ms total)
T0C70 001:631 JLINK_WriteReg(R0, 0x08002400)  returns 0x00 (0000ms, 0855ms total)
T0C70 001:631 JLINK_WriteReg(R1, 0x00000400)  returns 0x00 (0000ms, 0855ms total)
T0C70 001:631 JLINK_WriteReg(R2, 0x20000164)  returns 0x00 (0000ms, 0855ms total)
T0C70 001:631 JLINK_WriteReg(R3, 0x00000000)  returns 0x00 (0000ms, 0855ms total)
T0C70 001:631 JLINK_WriteReg(R4, 0x00000000)  returns 0x00 (0000ms, 0855ms total)
T0C70 001:631 JLINK_WriteReg(R5, 0x00000000)  returns 0x00 (0000ms, 0855ms total)
T0C70 001:631 JLINK_WriteReg(R6, 0x00000000)  returns 0x00 (0000ms, 0855ms total)
T0C70 001:631 JLINK_WriteReg(R7, 0x00000000)  returns 0x00 (0000ms, 0855ms total)
T0C70 001:631 JLINK_WriteReg(R8, 0x00000000)  returns 0x00 (0000ms, 0855ms total)
T0C70 001:631 JLINK_WriteReg(R9, 0x20000160)  returns 0x00 (0000ms, 0855ms total)
T0C70 001:631 JLINK_WriteReg(R10, 0x00000000)  returns 0x00 (0000ms, 0855ms total)
T0C70 001:631 JLINK_WriteReg(R11, 0x00000000)  returns 0x00 (0000ms, 0855ms total)
T0C70 001:631 JLINK_WriteReg(R12, 0x00000000)  returns 0x00 (0000ms, 0855ms total)
T0C70 001:631 JLINK_WriteReg(R13 (SP), 0x20001000)  returns 0x00 (0000ms, 0855ms total)
T0C70 001:631 JLINK_WriteReg(R14, 0x20000001)  returns 0x00 (0000ms, 0855ms total)
T0C70 001:631 JLINK_WriteReg(R15 (PC), 0x200000F4)  returns 0x00 (0000ms, 0855ms total)
T0C70 001:631 JLINK_WriteReg(XPSR, 0x01000000)  returns 0x00 (0000ms, 0855ms total)
T0C70 001:631 JLINK_WriteReg(MSP, 0x20001000)  returns 0x00 (0000ms, 0855ms total)
T0C70 001:631 JLINK_WriteReg(PSP, 0x20001000)  returns 0x00 (0000ms, 0855ms total)
T0C70 001:631 JLINK_WriteReg(CFBP, 0x00000000)  returns 0x00 (0000ms, 0855ms total)
T0C70 001:631 JLINK_SetBPEx(Addr = 0x20000000, Type = 0xFFFFFFF2)  returns 0x0000000E (0000ms, 0855ms total)
T0C70 001:631 JLINK_Go() -- CPU_ReadMem(4 bytes @ 0xE0001000) (0002ms, 0857ms total)
T0C70 001:633 JLINK_IsHalted()  returns FALSE (0000ms, 0857ms total)
T0C70 001:637 JLINK_IsHalted()  returns FALSE (0000ms, 0857ms total)
T0C70 001:639 JLINK_IsHalted()  returns FALSE (0000ms, 0857ms total)
T0C70 001:641 JLINK_IsHalted()  returns FALSE (0000ms, 0857ms total)
T0C70 001:643 JLINK_IsHalted()  returns FALSE (0000ms, 0857ms total)
T0C70 001:649 JLINK_IsHalted()  returns FALSE (0000ms, 0857ms total)
T0C70 001:651 JLINK_IsHalted()  returns FALSE (0000ms, 0857ms total)
T0C70 001:654 JLINK_IsHalted()  returns FALSE (0000ms, 0857ms total)
T0C70 001:656 JLINK_IsHalted()  returns FALSE (0000ms, 0857ms total)
T0C70 001:658 JLINK_IsHalted()  returns FALSE (0000ms, 0857ms total)
T0C70 001:660 JLINK_IsHalted()  returns FALSE (0000ms, 0857ms total)
T0C70 001:666 JLINK_IsHalted() -- CPU_ReadMem(2 bytes @ 0x20000000)  returns TRUE (0002ms, 0859ms total)
T0C70 001:668 JLINK_ReadReg(R15 (PC))  returns 0x20000000 (0000ms, 0857ms total)
T0C70 001:668 JLINK_ClrBPEx(BPHandle = 0x0000000E)  returns 0x00 (0000ms, 0857ms total)
T0C70 001:668 JLINK_ReadReg(R0)  returns 0x00000000 (0000ms, 0857ms total)
T0C70 001:668 JLINK_WriteMem(0x20000164, 0x0400 Bytes, ...) - Data: 64 1E 4A 46 31 46 20 46 00 F0 52 FC 26 B1 32 68 ... -- CPU_WriteMem(1024 bytes @ 0x20000164)  returns 0x400 (0006ms, 0863ms total)
T0C70 001:674 JLINK_WriteReg(R0, 0x08002800)  returns 0x00 (0000ms, 0863ms total)
T0C70 001:674 JLINK_WriteReg(R1, 0x00000400)  returns 0x00 (0000ms, 0863ms total)
T0C70 001:674 JLINK_WriteReg(R2, 0x20000164)  returns 0x00 (0000ms, 0863ms total)
T0C70 001:674 JLINK_WriteReg(R3, 0x00000000)  returns 0x00 (0000ms, 0863ms total)
T0C70 001:674 JLINK_WriteReg(R4, 0x00000000)  returns 0x00 (0000ms, 0863ms total)
T0C70 001:674 JLINK_WriteReg(R5, 0x00000000)  returns 0x00 (0000ms, 0863ms total)
T0C70 001:674 JLINK_WriteReg(R6, 0x00000000)  returns 0x00 (0000ms, 0863ms total)
T0C70 001:674 JLINK_WriteReg(R7, 0x00000000)  returns 0x00 (0000ms, 0863ms total)
T0C70 001:674 JLINK_WriteReg(R8, 0x00000000)  returns 0x00 (0000ms, 0863ms total)
T0C70 001:674 JLINK_WriteReg(R9, 0x20000160)  returns 0x00 (0000ms, 0863ms total)
